time	V(n001)	V(n003)	I(C1)	I(C2)	I(R1)
0.000000000000000e+000	1.250000e+002	1.250000e+002	1.250000e-015	1.250000e-015	2.461192e-015
1.734929372157370e-002	1.284116e+002	1.250062e+002	4.848878e-006	6.783443e-006	1.163232e-005
3.469858744314740e-002	1.318147e+002	1.250203e+002	9.674052e-006	1.352743e-005	2.320148e-005
5.204788116472110e-002	1.352092e+002	1.250424e+002	1.447552e-005	2.023195e-005	3.470747e-005
6.939717488629479e-002	1.385951e+002	1.250724e+002	1.925329e-005	2.689701e-005	4.615030e-005
8.674646860786850e-002	1.419724e+002	1.251104e+002	2.400736e-005	3.352262e-005	5.752997e-005
1.040957623294422e-001	1.453411e+002	1.251563e+002	2.873772e-005	4.010876e-005	6.884648e-005
1.214450560510159e-001	1.487013e+002	1.252102e+002	3.344438e-005	4.665545e-005	8.009982e-005
1.800388060510159e-001	1.598812e+002	1.254519e+002	4.901704e-005	6.826678e-005	1.172838e-004
2.386325560510159e-001	1.707658e+002	1.257834e+002	6.404165e-005	8.904173e-005	1.530834e-004
2.972263060510159e-001	1.812630e+002	1.262010e+002	7.839211e-005	1.088074e-004	1.871995e-004
3.558200560510159e-001	1.912840e+002	1.267003e+002	9.194807e-005	1.273995e-004	2.193476e-004
4.144138060510159e-001	2.007438e+002	1.272765e+002	1.045958e-004	1.446636e-004	2.492594e-004
4.730075560510159e-001	2.095624e+002	1.279238e+002	1.162294e-004	1.604563e-004	2.766857e-004
5.316013060510159e-001	2.176652e+002	1.286361e+002	1.267514e-004	1.746470e-004	3.013984e-004
6.194919310510159e-001	2.283290e+002	1.298113e+002	1.402604e-004	1.926763e-004	3.329367e-004
7.073825560510159e-001	2.370264e+002	1.310925e+002	1.508191e-004	2.065068e-004	3.573259e-004
7.952731810510159e-001	2.435920e+002	1.324527e+002	1.582302e-004	2.158843e-004	3.741145e-004
8.831638060510159e-001	2.479008e+002	1.338637e+002	1.623560e-004	2.206397e-004	3.829956e-004
9.710544310510159e-001	2.498708e+002	1.352962e+002	1.631214e-004	2.206912e-004	3.838126e-004
1.058945056051016e+000	2.494646e+002	1.367206e+002	1.605151e-004	2.160468e-004	3.765619e-004
1.146835681051016e+000	2.466898e+002	1.381075e+002	1.545903e-004	2.068034e-004	3.613937e-004
1.234726306051016e+000	2.415993e+002	1.394281e+002	1.454628e-004	1.931454e-004	3.386082e-004
1.322616931051016e+000	2.342899e+002	1.406551e+002	1.333096e-004	1.753410e-004	3.086506e-004
1.410507556051016e+000	2.249007e+002	1.417628e+002	1.183652e-004	1.537373e-004	2.721025e-004
1.469101306051016e+000	2.175726e+002	1.424234e+002	1.069915e-004	1.374283e-004	2.444198e-004
1.527695056051016e+000	2.094608e+002	1.430144e+002	9.460133e-005	1.197561e-004	2.143574e-004
1.586288806051016e+000	2.006340e+002	1.435301e+002	8.130044e-005	1.008726e-004	1.821730e-004
1.644882556051016e+000	1.911669e+002	1.439654e+002	6.720235e-005	8.093988e-005	1.481422e-004
1.703476306051016e+000	1.811398e+002	1.443161e+002	5.242728e-005	6.012905e-005	1.125563e-004
1.762070056051016e+000	1.706374e+002	1.445786e+002	3.710123e-005	3.861847e-005	7.571970e-005
1.820663806051016e+000	1.597487e+002	1.447500e+002	2.135482e-005	1.659245e-005	3.794727e-005
1.849960681051016e+000	1.541882e+002	1.448008e+002	1.336580e-005	5.444984e-006	1.881078e-005
1.879257556051016e+000	1.485658e+002	1.448282e+002	5.322219e-006	-5.760351e-006	-4.381317e-007
1.908554431051016e+000	1.428936e+002	1.448319e+002	-2.758776e-006	-1.699955e-005	-1.975833e-005
1.929480770336730e+000	1.388070e+002	1.448201e+002	-8.559995e-006	-2.505682e-005	-3.361681e-005
1.950407109622445e+000	1.347166e+002	1.447961e+002	-1.434951e-005	-3.308843e-005	-4.743794e-005
1.971333448908159e+000	1.306223e+002	1.447601e+002	-2.012733e-005	-4.109439e-005	-6.122172e-005
1.992259788193873e+000	1.265242e+002	1.447120e+002	-2.589345e-005	-4.907469e-005	-7.496814e-005
2.013186127479588e+000	1.224222e+002	1.446518e+002	-3.164787e-005	-5.702934e-005	-8.867721e-005
2.034112466765301e+000	1.183163e+002	1.445796e+002	-3.739059e-005	-6.495833e-005	-1.023489e-004
2.055038806051016e+000	1.142066e+002	1.444952e+002	-4.312161e-005	-7.286167e-005	-1.159833e-004
2.142929431051016e+000	9.717104e+001	1.440121e+002	-6.668773e-005	-1.052533e-004	-1.719410e-004
2.230820056051016e+000	8.066506e+001	1.433262e+002	-8.921114e-005	-1.360347e-004	-2.252459e-004
2.318710681051016e+000	6.500275e+001	1.424485e+002	-1.102604e-004	-1.646134e-004	-2.748738e-004
2.377304431051016e+000	5.517796e+001	1.417640e+002	-1.232737e-004	-1.821682e-004	-3.054419e-004
2.435898181051016e+000	4.594421e+001	1.410060e+002	-1.353409e-004	-1.983476e-004	-3.336885e-004
2.494491931051016e+000	3.737969e+001	1.401803e+002	-1.463590e-004	-2.130128e-004	-3.593718e-004
2.523788806051016e+000	3.337128e+001	1.397441e+002	-1.514448e-004	-2.197377e-004	-3.711825e-004
2.553085681051016e+000	2.955689e+001	1.392934e+002	-1.562339e-004	-2.260377e-004	-3.822716e-004
2.582382556051016e+000	2.594459e+001	1.388291e+002	-1.607158e-004	-2.318995e-004	-3.926153e-004
2.611679431051016e+000	2.254203e+001	1.383521e+002	-1.648812e-004	-2.373102e-004	-4.021914e-004
2.640976306051016e+000	1.935642e+001	1.378635e+002	-1.687210e-004	-2.422582e-004	-4.109792e-004
2.670273181051016e+000	1.639450e+001	1.373640e+002	-1.722269e-004	-2.467329e-004	-4.189599e-004
2.699570056051016e+000	1.366254e+001	1.368548e+002	-1.753916e-004	-2.507245e-004	-4.261161e-004
2.728866931051016e+000	1.116632e+001	1.363369e+002	-1.782082e-004	-2.542243e-004	-4.324325e-004
2.758163806051016e+000	8.911144e+000	1.358112e+002	-1.806706e-004	-2.572247e-004	-4.378952e-004
2.787460681051016e+000	6.901774e+000	1.352788e+002	-1.827735e-004	-2.597190e-004	-4.424925e-004
2.816757556051016e+000	5.142466e+000	1.347407e+002	-1.845124e-004	-2.617019e-004	-4.462143e-004
2.846054431051016e+000	3.636946e+000	1.341982e+002	-1.858835e-004	-2.631689e-004	-4.490523e-004
2.875351306051016e+000	2.388402e+000	1.336521e+002	-1.868838e-004	-2.641166e-004	-4.510003e-004
2.904648181051016e+000	1.399477e+000	1.331037e+002	-1.875110e-004	-2.645428e-004	-4.520538e-004
2.933945056051016e+000	6.722654e-001	1.325540e+002	-1.877638e-004	-2.644464e-004	-4.522102e-004
2.963241931051016e+000	2.083073e-001	1.320041e+002	-1.876416e-004	-2.638274e-004	-4.514690e-004
2.992538806051016e+000	8.584825e-003	1.314551e+002	-1.871444e-004	-2.626869e-004	-4.498313e-004
3.021835681051016e+000	7.352088e-002	1.309081e+002	-1.862733e-004	-2.610270e-004	-4.473004e-004
3.051132556051016e+000	4.029779e-001	1.303642e+002	-1.850300e-004	-2.588511e-004	-4.438812e-004
3.080429431051016e+000	9.962585e-001	1.298244e+002	-1.834171e-004	-2.561636e-004	-4.395807e-004
3.109726306051016e+000	1.852106e+000	1.292900e+002	-1.814378e-004	-2.529699e-004	-4.344078e-004
3.139023181051016e+000	2.968709e+000	1.287619e+002	-1.790963e-004	-2.492767e-004	-4.283730e-004
3.168320056051016e+000	4.343702e+000	1.282411e+002	-1.763975e-004	-2.450914e-004	-4.214889e-004
3.197616931051016e+000	5.974175e+000	1.277288e+002	-1.733469e-004	-2.404228e-004	-4.137697e-004
3.226913806051016e+000	7.856675e+000	1.272259e+002	-1.699509e-004	-2.352805e-004	-4.052314e-004
3.256210681051016e+000	9.987215e+000	1.267335e+002	-1.662166e-004	-2.296753e-004	-3.958919e-004
3.285507556051016e+000	1.236129e+001	1.262525e+002	-1.621519e-004	-2.236187e-004	-3.857706e-004
3.314804431051016e+000	1.497386e+001	1.257839e+002	-1.577653e-004	-2.171234e-004	-3.748887e-004
3.344101306051016e+000	1.781940e+001	1.253285e+002	-1.530660e-004	-2.102030e-004	-3.632689e-004
3.373398181051016e+000	2.089189e+001	1.248874e+002	-1.480637e-004	-2.028719e-004	-3.509356e-004
3.402695056051016e+000	2.418482e+001	1.244614e+002	-1.427691e-004	-1.951454e-004	-3.379145e-004
3.431991931051016e+000	2.769122e+001	1.240513e+002	-1.371932e-004	-1.870397e-004	-3.242329e-004
3.461288806051016e+000	3.140366e+001	1.236579e+002	-1.313478e-004	-1.785718e-004	-3.099196e-004
3.490585681051016e+000	3.531428e+001	1.232821e+002	-1.252452e-004	-1.697593e-004	-2.950045e-004
3.549179431051016e+000	4.369654e+001	1.225857e+002	-1.123200e-004	-1.511754e-004	-2.634954e-004
3.607773181051016e+000	5.276706e+001	1.219677e+002	-9.852651e-005	-1.314437e-004	-2.299702e-004
3.695663806051016e+000	6.749390e+001	1.211978e+002	-7.646372e-005	-1.000586e-004	-1.765223e-004
3.783554431051016e+000	8.331507e+001	1.206276e+002	-5.312731e-005	-6.705748e-005	-1.201848e-004
3.871445056051016e+000	9.992950e+001	1.202664e+002	-2.895914e-005	-3.306343e-005	-6.202257e-005
3.959335681051016e+000	1.170210e+002	1.201197e+002	-4.416866e-006	1.281583e-006	-3.135283e-006
3.988632556051016e+000	1.227681e+002	1.201187e+002	3.766716e-006	1.269574e-005	1.646246e-005
4.047226306051016e+000	1.342644e+002	1.201885e+002	2.003466e-005	3.532882e-005	5.536348e-005
4.105820056051016e+000	1.456822e+002	1.203530e+002	3.605622e-005	5.754334e-005	9.359956e-005
4.164413806051016e+000	1.569249e+002	1.206102e+002	5.169640e-005	7.915264e-005	1.308490e-004
4.223007556051016e+000	1.678974e+002	1.209577e+002	6.682344e-005	9.997516e-005	1.667986e-004
4.310898181051016e+000	1.836470e+002	1.216403e+002	8.827458e-005	1.293533e-004	2.176279e-004
4.398788806051016e+000	1.982806e+002	1.225036e+002	1.078796e-004	1.560150e-004	2.638946e-004
4.486679431051016e+000	2.115197e+002	1.235298e+002	1.252675e-004	1.794573e-004	3.047248e-004
4.574570056051016e+000	2.231123e+002	1.246977e+002	1.401094e-004	1.992385e-004	3.393479e-004
4.662460681051016e+000	2.328379e+002	1.259839e+002	1.521249e-004	2.149864e-004	3.671114e-004
4.750351306051016e+000	2.405113e+002	1.273624e+002	1.610874e-004	2.264056e-004	3.874929e-004
4.838241931051016e+000	2.459866e+002	1.288055e+002	1.668282e-004	2.332828e-004	4.001110e-004
4.926132556051016e+000	2.491595e+002	1.302846e+002	1.692400e-004	2.354913e-004	4.047313e-004
5.014023181051016e+000	2.499697e+002	1.317700e+002	1.682789e-004	2.329929e-004	4.012718e-004
5.101913806051016e+000	2.484017e+002	1.332322e+002	1.639650e-004	2.258393e-004	3.898043e-004
5.189804431051016e+000	2.444854e+002	1.346421e+002	1.563824e-004	2.141703e-004	3.705527e-004
5.277695056051016e+000	2.382953e+002	1.359715e+002	1.456771e-004	1.982118e-004	3.438889e-004
5.365585681051016e+000	2.299493e+002	1.371938e+002	1.320547e-004	1.782712e-004	3.103259e-004
5.453476306051016e+000	2.196060e+002	1.382845e+002	1.157762e-004	1.547316e-004	2.705079e-004
5.541366931051016e+000	2.074625e+002	1.392217e+002	9.715326e-005	1.280446e-004	2.251979e-004
5.629257556051016e+000	1.937496e+002	1.399862e+002	7.654192e-005	9.872153e-005	1.752635e-004
5.717148181051016e+000	1.787285e+002	1.405622e+002	5.433617e-005	6.732389e-005	1.216601e-004
5.775741931051016e+000	1.681279e+002	1.408354e+002	3.885508e-005	4.553503e-005	8.439011e-005
5.834335681051016e+000	1.571622e+002	1.410167e+002	2.298502e-005	2.327608e-005	4.626111e-005
5.892929431051016e+000	1.459243e+002	1.411042e+002	6.860859e-006	7.364279e-007	7.597287e-006
5.922226306051016e+000	1.402329e+002	1.411124e+002	-1.253761e-006	-1.057878e-005	-1.183254e-005
6.010116931051016e+000	1.230136e+002	1.409943e+002	-2.560088e-005	-4.441713e-005	-7.001801e-005
6.098007556051016e+000	1.058322e+002	1.406635e+002	-4.959137e-005	-7.759182e-005	-1.271832e-004
6.185898181051016e+000	8.901550e+001	1.401251e+002	-7.276706e-005	-1.094684e-004	-1.822354e-004
6.273788806051016e+000	7.288360e+001	1.393883e+002	-9.468533e-005	-1.394371e-004	-2.341224e-004
6.361679431051016e+000	5.774346e+001	1.384659e+002	-1.149275e-004	-1.669247e-004	-2.818521e-004
6.420273181051016e+000	4.834424e+001	1.377559e+002	-1.272986e-004	-1.836092e-004	-3.109078e-004
6.478866931051016e+000	3.959393e+001	1.369764e+002	-1.386468e-004	-1.988139e-004	-3.374607e-004
6.508163806051016e+000	3.548549e+001	1.365625e+002	-1.439068e-004	-2.058203e-004	-3.497272e-004
6.537460681051016e+000	3.156659e+001	1.361336e+002	-1.488757e-004	-2.124092e-004	-3.612849e-004
6.566757556051016e+000	2.784553e+001	1.356906e+002	-1.535428e-004	-2.185665e-004	-3.721093e-004
6.596054431051016e+000	2.433018e+001	1.352344e+002	-1.578982e-004	-2.242791e-004	-3.821773e-004
6.625351306051016e+000	2.102799e+001	1.347659e+002	-1.619327e-004	-2.295348e-004	-3.914674e-004
6.654648181051016e+000	1.794596e+001	1.342861e+002	-1.656375e-004	-2.343223e-004	-3.999599e-004
6.683945056051016e+000	1.509060e+001	1.337959e+002	-1.690049e-004	-2.386315e-004	-4.076364e-004
6.713241931051016e+000	1.246797e+001	1.332963e+002	-1.720276e-004	-2.424530e-004	-4.144807e-004
6.742538806051016e+000	1.008361e+001	1.327884e+002	-1.746993e-004	-2.457787e-004	-4.204780e-004
6.771835681051016e+000	7.942578e+000	1.322732e+002	-1.770141e-004	-2.486015e-004	-4.256156e-004
6.801132556051016e+000	6.049406e+000	1.317517e+002	-1.789671e-004	-2.509152e-004	-4.298823e-004
6.830429431051016e+000	4.408101e+000	1.312251e+002	-1.805542e-004	-2.527148e-004	-4.332690e-004
6.859726306051016e+000	3.022139e+000	1.306943e+002	-1.817718e-004	-2.539966e-004	-4.357684e-004
6.889023181051016e+000	1.894455e+000	1.301606e+002	-1.826175e-004	-2.547576e-004	-4.373750e-004
6.918320056051016e+000	1.027436e+000	1.296249e+002	-1.830893e-004	-2.549961e-004	-4.380853e-004
6.947616931051016e+000	4.229184e-001	1.290883e+002	-1.831862e-004	-2.547115e-004	-4.378977e-004
6.976913806051016e+000	8.218203e-002	1.285521e+002	-1.829079e-004	-2.539044e-004	-4.368122e-004
7.006210681051016e+000	5.948326e-003	1.280172e+002	-1.822550e-004	-2.525763e-004	-4.348312e-004
7.035507556051016e+000	1.943787e-001	1.274847e+002	-1.812287e-004	-2.507299e-004	-4.319586e-004
7.064804431051016e+000	6.470743e-001	1.269558e+002	-1.798313e-004	-2.483691e-004	-4.282005e-004
7.094101306051016e+000	1.363076e+000	1.264315e+002	-1.780656e-004	-2.454988e-004	-4.235645e-004
7.123398181051016e+000	2.340869e+000	1.259130e+002	-1.759354e-004	-2.421250e-004	-4.180603e-004
7.152695056051016e+000	3.578382e+000	1.254012e+002	-1.734450e-004	-2.382546e-004	-4.116996e-004
7.181991931051016e+000	5.072994e+000	1.248972e+002	-1.705997e-004	-2.338959e-004	-4.044955e-004
7.211288806051016e+000	6.821542e+000	1.244021e+002	-1.674054e-004	-2.290579e-004	-3.964633e-004
7.240585681051016e+000	8.820322e+000	1.239168e+002	-1.638689e-004	-2.237507e-004	-3.876197e-004
7.269882556051016e+000	1.106510e+001	1.234424e+002	-1.599977e-004	-2.179856e-004	-3.779833e-004
7.299179431051016e+000	1.355113e+001	1.229798e+002	-1.557998e-004	-2.117747e-004	-3.675745e-004
7.328476306051016e+000	1.627314e+001	1.225300e+002	-1.512841e-004	-2.051310e-004	-3.564151e-004
7.357773181051016e+000	1.922537e+001	1.220939e+002	-1.464601e-004	-1.980684e-004	-3.445285e-004
7.387070056051016e+000	2.240157e+001	1.216723e+002	-1.413380e-004	-1.906019e-004	-3.319399e-004
7.416366931051016e+000	2.579502e+001	1.212661e+002	-1.359285e-004	-1.827472e-004	-3.186757e-004
7.445663806051016e+000	2.939852e+001	1.208762e+002	-1.302431e-004	-1.745208e-004	-3.047639e-004
7.474960681051016e+000	3.320444e+001	1.205034e+002	-1.242938e-004	-1.659400e-004	-2.902338e-004
7.533554431051016e+000	4.139094e+001	1.198118e+002	-1.116541e-004	-1.477884e-004	-2.594425e-004
7.592148181051016e+000	5.028520e+001	1.191969e+002	-9.811593e-005	-1.284454e-004	-2.265613e-004
7.650741931051016e+000	5.981194e+001	1.186637e+002	-8.379358e-005	-1.080740e-004	-1.918675e-004
7.738632556051016e+000	7.511021e+001	1.180261e+002	-6.110559e-005	-7.596632e-005	-1.370719e-004
7.826523181051016e+000	9.135789e+001	1.175928e+002	-3.735685e-005	-4.254169e-005	-7.989854e-005
7.914413806051016e+000	1.082458e+002	1.173713e+002	-1.299802e-005	-8.433891e-006	-2.143191e-005
7.943710681051016e+000	1.139620e+002	1.173452e+002	-4.822568e-006	2.975525e-006	-1.847043e-006
8.002304431051016e+000	1.254525e+002	1.173648e+002	1.150862e-005	2.571020e-005	3.721882e-005
8.060898181051016e+000	1.369391e+002	1.174798e+002	2.769865e-005	4.817295e-005	7.587161e-005
8.119491931051016e+000	1.483247e+002	1.176888e+002	4.361084e-005	7.017426e-005	1.137851e-004
8.207382556051016e+000	1.650031e+002	1.181742e+002	6.666523e-005	1.019064e-004	1.685716e-004
8.295273181051016e+000	1.809203e+002	1.188564e+002	8.835551e-005	1.315821e-004	2.199376e-004
8.383163806051016e+000	1.957733e+002	1.197218e+002	1.082701e-004	1.586388e-004	2.669089e-004
8.471054431051016e+000	2.092796e+002	1.207530e+002	1.260312e-004	1.825634e-004	3.085946e-004
8.558945056051016e+000	2.211820e+002	1.219295e+002	1.413020e-004	2.029028e-004	3.442048e-004
8.646835681051016e+000	2.312541e+002	1.232282e+002	1.537931e-004	2.192717e-004	3.730648e-004
8.734726306051016e+000	2.393042e+002	1.246236e+002	1.632677e-004	2.313606e-004	3.946284e-004
8.822616931051016e+000	2.451790e+002	1.260882e+002	1.695469e-004	2.389413e-004	4.084883e-004
8.910507556051016e+000	2.487670e+002	1.275936e+002	1.725122e-004	2.418714e-004	4.143836e-004
8.998398181051016e+000	2.499996e+002	1.291103e+002	1.721081e-004	2.400969e-004	4.122050e-004
9.086288806051016e+000	2.488535e+002	1.306086e+002	1.683436e-004	2.336533e-004	4.019969e-004
9.174179431051016e+000	2.453505e+002	1.320592e+002	1.612913e-004	2.226651e-004	3.839564e-004
9.262070056051016e+000	2.395573e+002	1.334340e+002	1.510864e-004	2.073429e-004	3.584294e-004
9.349960681051016e+000	2.315841e+002	1.347059e+002	1.379243e-004	1.879801e-004	3.259044e-004
9.437851306051016e+000	2.215825e+002	1.358501e+002	1.220563e-004	1.649469e-004	2.870031e-004
9.525741931051016e+000	2.097431e+002	1.368440e+002	1.037854e-004	1.386830e-004	2.424685e-004
9.613632556051016e+000	1.962909e+002	1.376681e+002	8.346044e-005	1.096900e-004	1.931505e-004
9.701523181051016e+000	1.814822e+002	1.383059e+002	6.146906e-005	7.852112e-005	1.399902e-004
9.789413806051016e+000	1.655986e+002	1.387447e+002	3.823075e-005	4.577103e-005	8.400178e-005
9.848007556051016e+000	1.545609e+002	1.389221e+002	2.226394e-005	2.336682e-005	4.563076e-005
9.906601306051016e+000	1.432731e+002	1.390051e+002	6.075036e-006	7.272394e-007	6.802275e-006
9.994491931051016e+000	1.260815e+002	1.389513e+002	-1.832412e-005	-3.325312e-005	-5.157725e-005
1.008238255605102e+001	1.088693e+002	1.386839e+002	-4.244860e-005	-6.668271e-005	-1.091313e-004
1.017027318105102e+001	9.196413e+001	1.382074e+002	-6.583839e-005	-9.892393e-005	-1.647623e-004
1.025816380605102e+001	7.568761e+001	1.375302e+002	-8.804748e-005	-1.293618e-004	-2.174093e-004
1.034605443105102e+001	6.034948e+001	1.366646e+002	-1.086524e-004	-1.574158e-004	-2.660682e-004
1.040464818105102e+001	5.079044e+001	1.359906e+002	-1.213021e-004	-1.745276e-004	-2.958298e-004
1.046324193105102e+001	4.185961e+001	1.352453e+002	-1.329561e-004	-1.901956e-004	-3.231518e-004
1.052183568105102e+001	3.363256e+001	1.344349e+002	-1.435154e-004	-2.042868e-004	-3.478022e-004
1.055113255605102e+001	2.980498e+001	1.340074e+002	-1.483562e-004	-2.107032e-004	-3.590593e-004
1.058042943105102e+001	2.617897e+001	1.335661e+002	-1.528904e-004	-2.166815e-004	-3.695719e-004
1.060972630605102e+001	2.276220e+001	1.331120e+002	-1.571085e-004	-2.222092e-004	-3.793177e-004
1.063902318105102e+001	1.956190e+001	1.326460e+002	-1.610014e-004	-2.272744e-004	-3.882759e-004
1.066832005605102e+001	1.658487e+001	1.321691e+002	-1.645610e-004	-2.318665e-004	-3.964275e-004
1.069761693105102e+001	1.383739e+001	1.316823e+002	-1.677796e-004	-2.359755e-004	-4.037551e-004
1.072691380605102e+001	1.132529e+001	1.311866e+002	-1.706504e-004	-2.395929e-004	-4.102432e-004
1.075621068105102e+001	9.053892e+000	1.306829e+002	-1.731672e-004	-2.427108e-004	-4.158780e-004
1.078550755605102e+001	7.027997e+000	1.301724e+002	-1.753248e-004	-2.453226e-004	-4.206474e-004
1.081480443105102e+001	5.251896e+000	1.296562e+002	-1.771185e-004	-2.474228e-004	-4.245413e-004
1.084410130605102e+001	3.729351e+000	1.291352e+002	-1.785445e-004	-2.490068e-004	-4.275513e-004
1.087339818105102e+001	2.463587e+000	1.286105e+002	-1.795998e-004	-2.500713e-004	-4.296711e-004
1.090269505605102e+001	1.457283e+000	1.280834e+002	-1.802821e-004	-2.506139e-004	-4.308959e-004
1.093199193105102e+001	7.125701e-001	1.275547e+002	-1.805898e-004	-2.506335e-004	-4.312232e-004
1.096128880605102e+001	2.310251e-001	1.270258e+002	-1.805224e-004	-2.501299e-004	-4.306523e-004
1.099058568105102e+001	1.366752e-002	1.264975e+002	-1.800799e-004	-2.491043e-004	-4.291842e-004
